
**** 02/16/11 11:32:04 *********** Evaluation PSpice (Nov 1999) **************

 * D:\sem vi\folders\IGBT_MINI Pro\igbt_trigger.sch


 ****     CIRCUIT DESCRIPTION


******************************************************************************




* Schematics Version 9.1 - Web Update 1
* Sat Feb 12 14:11:31 2011



** Analysis setup **
.tran 20ns 10ms SKIPBP
.OP 
.STMLIB "igbt_trigger.stl"


* From [PSPICE NETLIST] section of pspiceev.ini:
.lib "nom.lib"

.INC "igbt_trigger.net"

**** INCLUDING igbt_trigger.net ****
* Schematics Netlist *



C_C3         V_astable $N_0001  0.001u  
D_D3         $N_0001 $N_0002 D1N4002 
Q_Q1         Vint $N_0003 $N_0004 Q2N2222
R_R7         $N_0003 V_mono  4.7k  
V_V1         $N_0002 0 5V
C_C4         0 $N_0005  0.01u  
C_C12         0 $N_0006  0.01u  
X_X2         0 $N_0001 V_mono $N_0002 $N_0006 $N_0007 $N_0007 $N_0002 555D
+  PARAMS: MAXFREQ=3E6
C_C5         0 $N_0007  0.01u  
C_C2         0 Vc2  0.1u  
X_X1         0 Vc2 V_astable $N_0002 $N_0005 Vc2 $N_0008 $N_0002 555D PARAMS:
+  MAXFREQ=3E6
X_U3         0 $N_0004 $N_0009 $N_0010 Vint uA741
V_V7         0 $N_0010 12V
V_V8         $N_0013 0 8V
V_V9         $N_0009 0 12V
R_R9         $N_0014 Vint  10k  
R_R4         $N_0001 $N_0002  25k  
X_U4         $N_0014 V_contr $N_0009 $N_0010 Vcomp uA741
D_D16         Vcomp voutF D1N4002 
R_R28         0 voutF  1k  
R_R2         Vc2 $N_0008  1k  
R_R12         0 $N_0017  .1k  
RT_R15         $N_0017 V_contr {(10K*(1-0.75))+.001}
RB_R15        V_contr $N_0013 {(10K*0.75)+.001}
C_C13         $N_0004 Vint  0.033u  
R_R10         $N_0010 $N_0004  21k  
R_R16         $N_0008 $N_0002 {6.5k*0.5+.001}
R_R5         $N_0007 $N_0002  9k  

**** RESUMING igbt_trigger.cir ****
.INC "igbt_trigger.als"



**** INCLUDING igbt_trigger.als ****
* Schematics Aliases *

.ALIASES
C_C3            C3(1=V_astable 2=$N_0001 )
D_D3            D3(1=$N_0001 2=$N_0002 )
Q_Q1            Q1(c=Vint b=$N_0003 e=$N_0004 )
R_R7            R7(1=$N_0003 2=V_mono )
V_V1            V1(+=$N_0002 -=0 )
C_C4            C4(1=0 2=$N_0005 )
C_C12           C12(1=0 2=$N_0006 )
X_X2            X2(GND=0 TRIGGER=$N_0001 OUTPUT=V_mono RESET=$N_0002
+  CONTROL=$N_0006 THRESHOLD=$N_0007 DISCHARGE=$N_0007 VCC=$N_0002 )
C_C5            C5(1=0 2=$N_0007 )
C_C2            C2(1=0 2=Vc2 )
X_X1            X1(GND=0 TRIGGER=Vc2 OUTPUT=V_astable RESET=$N_0002
+  CONTROL=$N_0005 THRESHOLD=Vc2 DISCHARGE=$N_0008 VCC=$N_0002 )
X_U3            U3(+=0 -=$N_0004 V+=$N_0009 V-=$N_0010 OUT=Vint )
V_V7            V7(+=0 -=$N_0010 )
V_V8            V8(+=$N_0013 -=0 )
V_V9            V9(+=$N_0009 -=0 )
R_R9            R9(1=$N_0014 2=Vint )
R_R4            R4(1=$N_0001 2=$N_0002 )
X_U4            U4(+=$N_0014 -=V_contr V+=$N_0009 V-=$N_0010 OUT=Vcomp )
D_D16           D16(1=Vcomp 2=voutF )
R_R28           R28(1=0 2=voutF )
R_R2            R2(1=Vc2 2=$N_0008 )
R_R12           R12(1=0 2=$N_0017 )
RT_R15           R15(1=$N_0017 t=V_contr )
RB_R15          R15(t=V_contr 2=$N_0013 )
C_C13           C13(1=$N_0004 2=Vint )
R_R10           R10(1=$N_0010 2=$N_0004 )
R_R16           R16(1=$N_0008 2=$N_0002 )
R_R5            R5(1=$N_0007 2=$N_0002 )
_    _(V_astable=V_astable)
_    _(Vint=Vint)
_    _(V_mono=V_mono)
_    _(Vc2=Vc2)
_    _(V_contr=V_contr)
_    _(Vcomp=Vcomp)
_    _(voutF=voutF)
.ENDALIASES


**** RESUMING igbt_trigger.cir ****
.probe


.END


**** Generated AtoD and DtoA Interfaces ****

*
* Analog/Digital interface for node V_astable
*
* Moving X_X1.u1:Q1 from analog node V_astable to new digital node V_astable$DtoA
X$V_astable_DtoA1
+ V_astable$DtoA
+ V_astable
+ $N_0002
+ 0
+ dtoa_555
+       PARAMS: DRVH=  96.4   DRVL= 104    CAPACITANCE=   0     
*
* Analog/Digital interface for node $N_0002
*
* Moving X_X1.u1:CLRBAR from analog node $N_0002 to new digital node $N_0002$AtoD
X$$N_0002_AtoD1
+ $N_0002
+ $N_0002$AtoD
+ $N_0002
+ 0
+ atod_555
+       PARAMS: CAPACITANCE=   0     
* Moving X_X2.u1:CLRBAR from analog node $N_0002 to new digital node $N_0002$AtoD2
X$$N_0002_AtoD2
+ $N_0002
+ $N_0002$AtoD2
+ $N_0002
+ 0
+ atod_555
+       PARAMS: CAPACITANCE=   0     
*
* Analog/Digital interface for node V_mono
*
* Moving X_X2.u1:Q1 from analog node V_mono to new digital node V_mono$DtoA
X$V_mono_DtoA1
+ V_mono$DtoA
+ V_mono
+ $N_0002
+ 0
+ dtoa_555
+       PARAMS: DRVH=  96.4   DRVL= 104    CAPACITANCE=   0     
*
* Analog/Digital interface for node X_X2.qb
*
* Moving X_X2.u1:QBAR1 from analog node X_X2.qb to new digital node X_X2.qb$DtoA
X$X_X2.qb_DtoA1
+ X_X2.qb$DtoA
+ X_X2.qb
+ $N_0002
+ 0
+ dtoa_555
+       PARAMS: DRVH=  96.4   DRVL= 104    CAPACITANCE=   0     
*
* Analog/Digital interface for node X_X1.qb
*
* Moving X_X1.u1:QBAR1 from analog node X_X1.qb to new digital node X_X1.qb$DtoA
X$X_X1.qb_DtoA1
+ X_X1.qb$DtoA
+ X_X1.qb
+ $N_0002
+ 0
+ dtoa_555
+       PARAMS: DRVH=  96.4   DRVL= 104    CAPACITANCE=   0     
*
* Analog/Digital interface power supply subcircuits
*

X$DIGIFPWR 0 DIGIFPWR

**** 02/16/11 11:32:04 *********** Evaluation PSpice (Nov 1999) **************

 * D:\sem vi\folders\IGBT_MINI Pro\igbt_trigger.sch


 ****     Diode MODEL PARAMETERS


******************************************************************************




               D1N4002         X_U3.dx         X_U4.dx         
          IS   14.110000E-09  800.000000E-18  800.000000E-18 
           N    1.984                                        
         ISR  100.000000E-12                                 
         IKF   94.81                                         
          BV  100.1                                          
         IBV   10                                            
          RS     .03389         1               1            
          TT    4.761000E-06                                 
         CJO   51.170000E-12                                 
          VJ     .3905                                       
           M     .2762                                       


**** 02/16/11 11:32:04 *********** Evaluation PSpice (Nov 1999) **************

 * D:\sem vi\folders\IGBT_MINI Pro\igbt_trigger.sch


 ****     BJT MODEL PARAMETERS


******************************************************************************




               Q2N2222         X_U3.qx         X_U4.qx         
               NPN             NPN             NPN             
          IS   14.340000E-15  800.000000E-18  800.000000E-18 
          BF  255.9            93.75           93.75         
          NF    1               1               1            
         VAF   74.03                                         
         IKF     .2847                                       
         ISE   14.340000E-15                                 
          NE    1.307                                        
          BR    6.092           1               1            
          NR    1               1               1            
          RB   10                                            
          RC    1                                            
         CJE   22.010000E-12                                 
         MJE     .377                                        
         CJC    7.306000E-12                                 
         MJC     .3416                                       
          TF  411.100000E-12                                 
         XTF    3                                            
         VTF    1.7                                          
         ITF     .6                                          
          TR   46.910000E-09                                 
         XTB    1.5                                          
          CN    2.42            2.42            2.42         
           D     .87             .87             .87         


**** 02/16/11 11:32:04 *********** Evaluation PSpice (Nov 1999) **************

 * D:\sem vi\folders\IGBT_MINI Pro\igbt_trigger.sch


 ****     MOSFET MODEL PARAMETERS


******************************************************************************




               X_X2.nchan      X_X1.nchan      
               NMOS            NMOS            
       LEVEL    1               1            
           L  100.000000E-06  100.000000E-06 
           W  100.000000E-06  100.000000E-06 
         VTO    0               0            
          KP   20.000000E-06   20.000000E-06 
       GAMMA    0               0            
         PHI     .6              .6          
      LAMBDA    0               0            
          IS   10.000000E-15   10.000000E-15 
          JS    0               0            
          PB     .8              .8          
        PBSW     .8              .8          
          CJ    0               0            
        CJSW    0               0            
        CGSO    1.000000E-12    1.000000E-12 
        CGDO    1.000000E-12    1.000000E-12 
        CGBO    1.000000E-12    1.000000E-12 
         TOX    0               0            
          XJ    0               0            
       UCRIT   10.000000E+03   10.000000E+03 
      DIOMOD    1               1            
         VFB    0               0            
        LETA    0               0            
        WETA    0               0            
          U0    0               0            
        TEMP    0               0            
         VDD    0               0            
       XPART    0               0            


**** 02/16/11 11:32:04 *********** Evaluation PSpice (Nov 1999) **************

 * D:\sem vi\folders\IGBT_MINI Pro\igbt_trigger.sch


 ****     Digital Input MODEL PARAMETERS


******************************************************************************




               din555          
        FILE DSO_DTOA        
      FORMAT    6            
    TIMESTEP  100.000000E-12 
      S0NAME 0               
       S0TSW  700.000000E-12 
       S0RLO  100            
       S0RHI    1.000000E+06 
      S1NAME 1               
       S1TSW  700.000000E-12 
       S1RLO    1.000000E+06 
       S1RHI  300            
      S2NAME x               
       S2TSW  700.000000E-12 
       S2RLO  200            
       S2RHI  200            
      S3NAME r               
       S3TSW  700.000000E-12 
       S3RLO  200            
       S3RHI  200            
      S4NAME f               
       S4TSW  700.000000E-12 
       S4RLO  200            
       S4RHI  200            
      S5NAME z               
       S5TSW  700.000000E-12 
       S5RLO  200.000000E+03 
       S5RHI  200.000000E+03 


**** 02/16/11 11:32:04 *********** Evaluation PSpice (Nov 1999) **************

 * D:\sem vi\folders\IGBT_MINI Pro\igbt_trigger.sch


 ****     Digital Output MODEL PARAMETERS


******************************************************************************




               X_X2.cmp        X_X1.cmp        do555           
        FILE DSO_ATOD        DSO_ATOD        DSO_ATOD        
      FORMAT    6               6               6            
     CHGONLY    1               1               1            
    TIMESTEP  100.000000E-12  100.000000E-12  100.000000E-12 
      S0NAME 0               0               X               
       S0VHI                                    2            
       S0VLO -500            -500                .8          
      S1NAME 1               1               0               
       S1VHI  500             500                .8          
       S1VLO                                   -1.5          
      S2NAME                                 R               
       S2VHI                                    1.4          
       S2VLO                                     .8          
      S3NAME                                 R               
       S3VHI                                    2            
       S3VLO                                    1.3          
      S4NAME                                 X               
       S4VHI                                    2            
       S4VLO                                     .8          
      S5NAME                                 1               
       S5VHI                                   50            
       S5VLO                                    2            
      S6NAME                                 F               
       S6VHI                                    2            
       S6VLO                                    1.3          
      S7NAME                                 F               
       S7VHI                                    1.4          
       S7VLO                                     .8          


**** 02/16/11 11:32:04 *********** Evaluation PSpice (Nov 1999) **************

 * D:\sem vi\folders\IGBT_MINI Pro\igbt_trigger.sch


 ****     Digital Gated FF MODEL PARAMETERS


******************************************************************************




               X_X2.t_srff     X_X1.t_srff     
    TPDQLHMN    0               0            
    TPDQLHTY    0               0            
    TPDQLHMX    0               0            
    TPDQHLMN    0               0            
    TPDQHLTY    0               0            
    TPDQHLMX    0               0            
    TPGQLHMN    0               0            
    TPGQLHTY    0               0            
    TPGQLHMX    0               0            
    TPGQHLMN    0               0            
    TPGQHLTY    0               0            
    TPGQHLMX    0               0            
   TPPCQLHMN   48.000000E-09   48.000000E-09 
   TPPCQLHTY  120.000000E-09  120.000000E-09 
   TPPCQLHMX  192.000000E-09  192.000000E-09 
   TPPCQHLMN    0               0            
   TPPCQHLTY    0               0            
   TPPCQHLMX    0               0            
      TWGHMN    0               0            
      TWGHTY    0               0            
      TWGHMX    0               0            
     TWPCLMN    0               0            
     TWPCLTY    0               0            
     TWPCLMX    0               0            
     TSUDGMN    0               0            
     TSUDGTY    0               0            
     TSUDGMX    0               0            
   TSUPCGHMN    0               0            
   TSUPCGHTY    0               0            
   TSUPCGHMX    0               0            
      THDGMN    0               0            
      THDGTY    0               0            
      THDGMX    0               0            


**** 02/16/11 11:32:04 *********** Evaluation PSpice (Nov 1999) **************

 * D:\sem vi\folders\IGBT_MINI Pro\igbt_trigger.sch


 ****     Digital Delay Line MODEL PARAMETERS


******************************************************************************




               X_X2.dlymod     X_X1.dlymod     
       DLYMN  166.666700E-09  166.666700E-09 
       DLYTY  166.666700E-09  166.666700E-09 
       DLYMX  166.666700E-09  166.666700E-09 


**** 02/16/11 11:32:04 *********** Evaluation PSpice (Nov 1999) **************

 * D:\sem vi\folders\IGBT_MINI Pro\igbt_trigger.sch


 ****     Digital IO  MODEL PARAMETERS


******************************************************************************




               X_X2.io_555     X_X1.io_555     io_std          io_stm          
        DRVL  104             104             104               0            
        DRVH   96.4            96.4            96.4             0            
       AtoD1 atod_555        atod_555        AtoD_STD                        
       AtoD2 atod_555        atod_555        AtoD_STD_NX                     
       AtoD3 atod_555        atod_555        AtoD_STD                        
       AtoD4 atod_555        atod_555        AtoD_STD_NX                     
       DtoA1 dtoa_555        dtoa_555        DtoA_STD        DtoA_STM        
       DtoA2 dtoa_555        dtoa_555        DtoA_STD        DtoA_STM        
       DtoA3 dtoa_555        dtoa_555        DtoA_STD        DtoA_STM        
       DtoA4 dtoa_555        dtoa_555        DtoA_STD        DtoA_STM        
      TSWHL1                                    1.373000E-09                 
      TSWHL2                                    1.346000E-09                 
      TSWHL3                                    1.511000E-09                 
      TSWHL4                                    1.487000E-09                 
      TSWLH1                                    3.382000E-09                 
      TSWLH2                                    3.424000E-09                 
      TSWLH3                                    3.517000E-09                 
      TSWLH4                                    3.564000E-09                 
       TPWRT  100.000000E+03  100.000000E+03  100.000000E+03  100.000000E+03 


**** 02/16/11 11:32:04 *********** Evaluation PSpice (Nov 1999) **************

 * D:\sem vi\folders\IGBT_MINI Pro\igbt_trigger.sch


 ****     SMALL SIGNAL BIAS SOLUTION       TEMPERATURE =   27.000 DEG C


******************************************************************************



 NODE   VOLTAGE     NODE   VOLTAGE     NODE   VOLTAGE     NODE   VOLTAGE


(  Vc2)    5.0000  ( Vint)     .0024  (Vcomp)  -11.6140  (voutF)-14.37E-06      

(V_mono)    4.7406 (X_U3.6) 3.902E-06 (X_U3.7)    -.0120 (X_U3.8)    -.0120     

(X_U3.9)    0.0000 (X_U4.6)    1.5115 (X_U4.7)  -11.6140 (X_U4.8)  -11.6140     

(X_U4.9)    0.0000 ($G_DGND)    0.0000                   ($G_DPWR)    5.0000    

($N_0001)    5.0000                   ($N_0002)    5.0000                       

($N_0003)     .6989                   ($N_0004) 19.46E-06                       

($N_0005)    3.3333                   ($N_0006)    3.3333                       

($N_0007)    5.0000                   ($N_0008)    5.0000                       

($N_0009)   12.0000                   ($N_0010)  -12.0000                       

($N_0013)    8.0000                   ($N_0014)     .0024                       

($N_0017)     .0792                   (V_contr)    2.0591                       

(X_U3.10)    -.6077                   (X_U3.11)   11.9600                       

(X_U3.12)   11.9600                   (X_U3.13)    -.5938                       

(X_U3.14)    -.5938                   (X_U3.53)   11.0000                       

(X_U3.54)  -11.0000                   (X_U3.90)    -.2884                       

(X_U3.91)   40.0000                   (X_U3.92)  -40.0000                       

(X_U3.99)    0.0000                   (X_U4.10)    1.4191                       

(X_U4.11)   11.9200                   (X_U4.12)   12.0000                       

(X_U4.13)    1.4471                   (X_U4.14)    1.4191                       

(X_U4.53)   11.0000                   (X_U4.54)  -11.0000                       

(X_U4.90)    -.0160                   (X_U4.91)   40.0000                       

(X_U4.92)  -40.0000                   (X_U4.99)    0.0000                       

(X_X1.qb) 500.0E-06                   (X_X2.qb) 500.0E-06                       

(V_astable)    4.9985                 (X_X1.botm)    1.6667                     

(X_X2.botm)    1.6667                 



 DGTL NODE : STATE  DGTL NODE : STATE  DGTL NODE : STATE  DGTL NODE : STATE


( X_X2.rd) : 1     ($N_0002$AtoD2) : 1                   (  X_X1.r) : 1         

( X_X1.sd) : 0     (V_mono$DtoA) : 1  ( X_X2.hi) : 1     ( X_X1.rd) : 1         

(X_X1.strt) : 0    (  X_X1.s) : 0     ( X_X1.hi) : 1     (X_X2.strt) : 0        

(  X_X2.r) : 1     ($N_0002$AtoD) : 1                    (X_X2.qb$DtoA) : 0     

(V_astable$DtoA) : 1                  (  X_X2.s) : 0     ( X_X2.sd) : 0         

(X_X1.qb$DtoA) : 0                    




    VOLTAGE SOURCE CURRENTS
    NAME         CURRENT

    V_V1        -1.136E-03
    V_V7        -3.229E-03
    V_V8        -7.921E-04
    V_V9        -2.673E-03
    X_U3.vb      3.902E-11
    X_U3.vc      1.100E-11
    X_U3.ve      1.100E-11
    X_U3.vlim   -2.884E-04
    X_U3.vlp    -4.029E-11
    X_U3.vln    -3.972E-11
    X_U4.vb      1.511E-05
    X_U4.vc      2.261E-11
    X_U4.ve     -1.603E-05
